#Digilent WaveForms Network Analyzer - Bode
#Device Name: Discovery2
#Serial Number: SN:210321B21C9E
#Date Time: 2024-03-03 18:45:10.000
#Start: 10 Hz
#Stop: 20000 Hz
#Steps: 1001
#Wavegen: Wavegen C1
#Amplification: 1 X
#Settle: 10 ms
#MinPeriods: 32 
#Channel: Channel 1
#Range: 5.55361 V
#Offset: -0.000184537 V
#Relative: no
#Channel: Channel 2
#Range: 5.63147 V
#Offset: -0.000217631 V
#Relative: yes

Frequency (Hz),Channel 1 Magnitude (dB),Channel 1 Magnitude THD+N (dB),Channel 2 Magnitude (dB),Channel 2 Magnitude THD+N (dB),Channel 2 Phase (deg)
10.00000000000001,-0.1301855158252798,-61.22166234776876,-0.2672469535943892,-51.42793524799846,29.46388691876691
10.07629862646663,-0.1301127361832353,-61.26654490668667,-0.2620203546650395,-52.6031875871168,29.22055538105973
10.1531794009733,-0.1299268744593766,-61.2314357393112,-0.2573957197143394,-53.26629536610596,28.99329380932468
10.23064676522965,-0.1300319682310512,-61.10640597550201,-0.2525660852897866,-53.6911445284587,28.77234989921673
10.30870519483485,-0.1300596006429386,-59.97327505183212,-0.247523646081108,-53.97214480176483,28.55912400255454
10.38735919953637,-0.1300446027461232,-59.60078293728981,-0.2430251925753809,-54.22830801207067,28.34533646543194
10.46661332349036,-0.1300419066054593,-61.23939475479616,-0.2381990271961641,-54.92927030004061,28.1356110674564
10.54647214552432,-0.1301474969535247,-61.15105641122506,-0.233671498928703,-55.30083942675116,27.92691164451942
10.62694027940151,-0.1303116090488101,-60.28217008212165,-0.2289788580693459,-55.1568662792594,27.71994385317918
10.70802237408762,-0.1302688583210644,-61.28989480230029,-0.2246857653358328,-55.7361753199974,27.51545688717991
10.78972311401929,-0.1303430971490733,-61.19263774885567,-0.2202534152512422,-56.04873219948026,27.31256978146865
10.87204721937475,-0.130553678718425,-60.46970402230353,-0.2160922431853909,-55.90658491958331,27.11291888284271
10.9549994463466,-0.1303978039739936,-61.23824611884112,-0.2119470106194407,-56.42481247106797,26.91586401256443
11.03858458741647,-0.1302386106474209,-58.62519990479963,-0.2077256176852421,-55.6034250394534,26.71833921367075
11.12280747163202,-0.1303806364674649,-61.37148921844911,-0.2032661516653994,-56.88748727226574,26.52240148420793
11.20767296488584,-0.1305169929224484,-60.83665981072571,-0.1993806573631449,-56.85468275596725,26.32811915957031
11.29318597019661,-0.1305258487906679,-59.94734739049911,-0.1954719922143838,-56.62748540020174,26.13536829229789
11.37935142799242,-0.1305449630003145,-61.295357086265,-0.1913457452764025,-57.37052542920351,25.94476634002099
11.46617431639608,-0.1303372032178178,-61.19373015043954,-0.1875176424340209,-57.58336963102575,25.75442958207312
11.55365965151287,-0.1305178056192911,-61.10045354358142,-0.1837473132087166,-57.68862371218832,25.56657222095924
11.64181248772018,-0.1305231215761593,-61.34516608664045,-0.1800252021123489,-57.77171558738591,25.3804798388748
11.73063791795968,-0.1307880877599603,-58.58885111810861,-0.1762402680279061,-56.41268581018421,25.19350137058008
11.82014107403143,-0.130870551335647,-58.4108444124784,-0.1725236906424843,-56.46766102381024,25.01141212736369
11.91032712689045,-0.1306328006776576,-58.30237718181043,-0.1691311810015929,-56.36931549422647,24.82726521459413
12.00120128694543,-0.1306163520924569,-61.14567669606551,-0.1656405050129767,-58.43571759168398,24.6468125375529
12.09276880435975,-0.1305327111861133,-61.27310857484037,-0.1620377574719699,-58.48166738399851,24.46655749069627
12.18503496935486,-0.1307206450884244,-61.30456933860451,-0.1583634231361091,-58.60080977541041,24.28690489654786
12.27800511251579,-0.1306956401776901,-61.07265924916387,-0.1550878911313084,-58.66217444899636,24.110402732806
12.3716846050993,-0.1304040568491457,-61.27367835781276,-0.1516857180962026,-58.89852437107515,23.93341458830412
12.46607885934403,-0.1305838571541675,-59.79470443434145,-0.1482984530328726,-57.98591719791602,23.76015612623899
12.56119332878326,-0.1306478080778208,-61.21576452993042,-0.1450286440542069,-58.94274667217086,23.5866887668596
12.65703350856005,-0.1304929885472978,-61.08000897536414,-0.1419822557923399,-59.08024021266154,23.41525758357028
12.75360493574454,-0.1307713598273468,-58.75890861804382,-0.1384726463681239,-57.40934680609804,23.24609197433202
12.85091318965406,-0.1306657092844108,-61.09722292209773,-0.1354607561489893,-59.11907889293265,23.07610662101737
12.9489638921753,-0.1305703455573153,-58.72279652603229,-0.1324955783903281,-57.61785483041434,22.90757658960241
13.04776270808917,-0.1304865394350926,-61.18114591693789,-0.1293873058900421,-59.36345130021807,22.73872458194646
13.14731534539812,-0.1304732729824935,-61.25023183387625,-0.1265890483519171,-59.38385493300707,22.57373509424232
13.24762755565585,-0.1303787533746853,-60.94032467827105,-0.123505251964062,-59.42752273831363,22.40922464955805
13.34870513429963,-0.1304559390951446,-61.23781818942917,-0.1205331270781241,-59.54271791538638,22.24560245012935
13.45055392098512,-0.1305351584391285,-59.92730240932175,-0.1175303185864637,-58.62994753157565,22.08256615079124
13.55317979992375,-0.1306044678876033,-59.57381582171554,-0.1146913016304856,-58.49957746208319,21.92241119903146
13.65658870022268,-0.1305647588355353,-61.0436829587189,-0.1120679201425063,-59.74170651030044,21.76283861458544
13.76078659622732,-0.1307280084068559,-61.19840981367826,-0.1090920467543275,-59.83206238839902,21.60355852851404
13.86577950786656,-0.1307783428950433,-58.94479842464109,-0.1064074156020784,-58.15133469147634,21.4460440242995
13.97157350100047,-0.1306858232825812,-60.35832106705958,-0.1038356668675544,-59.44638295396335,21.2914621822312
14.07817468777084,-0.1306056085653501,-61.33239865927112,-0.1007923630639582,-60.06226489912051,21.13553237756303
14.18558922695423,-0.1306443857527861,-61.16326868668529,-0.09809597164065846,-60.16064814383212,20.9813910854708
14.29382332431786,-0.1306054272044932,-61.32640333023906,-0.09581168020230973,-60.13999853133603,20.82814097425326
14.40288323297805,-0.1306703723392457,-61.34000763869081,-0.09306140831175076,-60.19239505981894,20.67618394499948
14.51277525376157,-0.130862243405001,-59.41745809400227,-0.09065700001598273,-58.64186141035101,20.52511210336025
14.62350573556964,-0.1308661084087759,-58.73293137889439,-0.08798812521084096,-58.12638796444516,20.37469897718586
14.7350810757447,-0.1308878068356685,-59.54007716348834,-0.08546576119083543,-58.92654525242493,20.22668339518512
14.84750772044005,-0.1306906043898284,-58.66076788037546,-0.08295871357542875,-58.07371106256617,20.07818589683961
14.96079216499225,-0.1306004670031939,-61.22808789063002,-0.08079789440845866,-60.49783236269452,19.9298281303982
15.07494095429639,-0.1305683852779825,-61.05131024957789,-0.07858738011039527,-60.32039748070531,19.78559407200615
15.18996068318421,-0.1306539272209776,-59.15204614500816,-0.07618486936600934,-58.59882633745735,19.640071304141
15.30585799680509,-0.1307685881709671,-58.54638490903443,-0.07393630581586447,-58.20083376293333,19.49651935823495
15.42263959101002,-0.1306653332755553,-60.24299295489001,-0.07168044186240782,-59.75552843947736,19.35380221887625
15.54031221273838,-0.1306759054553977,-61.14367922120218,-0.06936298358647858,-60.6272680501645,19.21174048554808
15.6588826604078,-0.1305878188648608,-61.22210089140818,-0.06706188689964954,-60.50001667499195,19.07069169773048
15.77835778430691,-0.1307842525425553,-61.07321763250779,-0.06512261776464542,-60.54411339034046,18.93037278380935
15.89874448699104,-0.1307314453453775,-61.18485433550574,-0.06300372594764457,-60.70678604459638,18.792047006848
16.02004972368117,-0.1305964850467864,-60.68470693013268,-0.06086112793543744,-60.2186714754383,18.65464221007572
16.14228050266552,-0.130631489635364,-59.72586775963098,-0.05881549675444863,-59.33541431229256,18.5187720044223
16.26544388570476,-0.1304162351045361,-58.94592517201036,-0.05678548382915056,-58.56974125389983,18.38355396770589
16.38954698843964,-0.1305704027206224,-59.70559062813954,-0.05487897059157429,-59.18454028832073,18.24914826376197
16.51459698080246,-0.1305811536688031,-59.9068616634431,-0.05275462464084869,-59.55723507273792,18.11549841686821
16.64060108743094,-0.1308924331162964,-60.96933472083027,-0.05077301490874316,-60.67133031674955,17.98278432941878
16.76756658808593,-0.1308632216504973,-58.5217594477415,-0.04864092449871965,-58.10667523987008,17.85024433520086
16.89550081807177,-0.1308896182741535,-58.59933392821386,-0.04683183986805807,-58.38847195436415,17.71908696640208
17.02441116866022,-0.1308639434746512,-60.89383353979984,-0.04491937459666758,-60.63028791860337,17.59059774196631
17.15430508751737,-0.1308296824421126,-58.89180606594156,-0.04320075827371552,-58.62359133036239,17.46118678789009
17.28519007913404,-0.1313566044798748,-58.41768698098257,-0.04098313164673784,-58.20637879492649,17.33283739047407
17.41707370525928,-0.1312015613102933,-60.98103686911628,-0.0391354522060741,-60.91284767917345,17.20582167757372
17.5499635853372,-0.1312049670333443,-61.09744518816079,-0.03742789968132542,-60.89041180084866,17.07853776776852
17.68386739694722,-0.131320734366168,-60.93892834239612,-0.03571531606670381,-60.84670705415881,16.9524203485442
17.81879287624771,-0.1312008745105577,-60.11057953255357,-0.03423495732097491,-60.0129590863468,16.82950939174167
17.95474781842277,-0.1312342726085562,-61.13510941632339,-0.03252199902641383,-60.97029953623032,16.70524537771626
18.09174007813279,-0.1311450930239703,-61.16766889397277,-0.03086361159360273,-60.8115318324861,16.58239689385741
18.22977756996803,-0.1312053624391852,-60.99564219477938,-0.02920301052731024,-60.80692541708296,16.45989954702861
18.36886826890608,-0.1310595206674469,-61.11289834045762,-0.02763081436846026,-61.1598298613013,16.33996376545059
18.50902021077247,-0.131174439901651,-61.16874704678687,-0.02572562727569084,-61.03849956906423,16.21960987492241
18.65024149270493,-0.1311722581770893,-59.42069345595095,-0.02459416550470344,-59.38719970123692,16.10036168168653
18.79254027362134,-0.1312299017108924,-61.12423671237913,-0.02269414529184486,-61.01597036591556,15.98174614643048
18.93592477469091,-0.1310735331287542,-61.17176295924072,-0.02126950907246912,-61.09081630923741,15.86477274669648
19.08040327980932,-0.1313966084400184,-61.11885193643612,-0.01965765748942085,-61.09222807072808,15.74819137229643
19.22598413607719,-0.1313837342204752,-60.93923577177441,-0.01832380288516514,-60.7939711751948,15.63019949135799
19.37267575428234,-0.1314781963537244,-61.2477369402862,-0.0168766444096593,-61.14534295632105,15.51566241268416
19.52048660938583,-0.1313351749131301,-60.35421747886939,-0.01550131628519454,-60.3386174883623,15.40234948976656
19.66942524101142,-0.1314118531850968,-58.65889228392256,-0.01412633605035292,-58.39925132041998,15.28856234720167
19.81950025393912,-0.1312310767305955,-61.180538624983,-0.01269820284005337,-61.32426221103994,15.17579233580909
19.97072031860214,-0.1310228080716235,-61.21022279539601,-0.01167264424386274,-61.13888091277147,15.06370497640872
20.12309417158797,-0.1313283411062441,-58.67590974136328,-0.01010353837880673,-58.67069708740075,14.95251563856313
20.27663061614303,-0.1313479918822729,-61.01833540291041,-0.008803791281351369,-61.06840491235799,14.84189553207454
20.43133852268128,-0.1311266489078248,-61.06742152094399,-0.007688660182149568,-61.02609642249925,14.73187818574802
20.58722682929679,-0.1311777847396682,-60.35185248979477,-0.006197187437012682,-60.47416549521814,14.62403182343613
20.74430454227997,-0.1312224716570131,-60.56722889956436,-0.005001074478129556,-60.53936300603769,14.51525563175145
20.90258073663809,-0.1309783241879924,-60.92426241320798,-0.003675296041112798,-60.99388750608686,14.40927947062376
21.06206455661938,-0.1311991630108506,-61.10548029661904,-0.002441325310411921,-61.06653348463917,14.30385847477839
21.22276521624151,-0.1308967557981633,-61.22511489109069,-0.001240631479570854,-61.17748656332687,14.19729167476615
21.38469199982378,-0.1310211935089528,-59.76156119649315,0.0002768209110815475,-59.65902171659143,14.09228857401272
21.54785426252359,-0.1309464397846272,-61.1092970612473,0.00122389896714581,-61.09112214799808,13.98756187973629
21.71226143087693,-0.130961590512713,-58.71304163365774,0.002410751264217416,-58.74430098544003,13.8853141134049
21.87792300334291,-0.131047204344098,-58.68155114212405,0.003261015651434225,-58.81236208698951,13.78301155867272
22.04484855085266,-0.1309556010121808,-61.06233684935727,0.004443687046378557,-61.09090489188126,13.68295492285372
22.21304771736211,-0.1310702443386263,-59.34535903823975,0.00579129095994767,-59.53497814121836,13.58102631966721
22.38253022040933,-0.1310659450331143,-61.05526646478716,0.006959719039039476,-60.97615053048096,13.48064215171154
22.55330585167581,-0.1310312597679151,-61.08347989917712,0.007962186243216141,-61.35265112822413,13.38179292216938
22.72538447755223,-0.1311275377029679,-61.03927386970057,0.008887242109785847,-61.03465546738335,13.2828577889077
22.89877603970853,-0.1310818520871821,-60.94719521465854,0.009964882263684804,-61.11232428122439,13.18472900595178
23.07349055566815,-0.1311246080589741,-60.92167943700977,0.01114813781566304,-61.3650755554412,13.08730833800447
23.24953811938695,-0.1311707433001299,-59.78016086416433,0.01227192969459362,-59.95781691530539,12.99005822457243
23.42692890183618,-0.1311450305183217,-61.03122675161267,0.01339682228025505,-61.00201544789557,12.89459939892289
23.6056731515903,-0.1311884285313556,-60.92148278016477,0.01440556553162562,-61.09947162273647,12.80004808241027
23.78578119541893,-0.1312707084964331,-61.02385814191044,0.01517411313322364,-61.30295688110888,12.70544411446898
23.9672634388835,-0.1311185282738004,-61.04529257330896,0.0159123423968643,-61.26143718082014,12.61122133218884
24.15013036693854,-0.131314522389783,-59.32231185056139,0.01742640035187024,-59.32266555695486,12.51885567092056
24.33439254453724,-0.1310913158142794,-59.95614643978644,0.01813055195235221,-60.00116384353917,12.42538912626145
24.52006061724201,-0.1310753197722352,-59.42065175713212,0.01889839458888471,-59.56524946198287,12.33497807998154
24.70714531183936,-0.1311603747204298,-60.96679198469932,0.01968320168050389,-61.175479993118,12.24309604155402
24.89565743695981,-0.1311282435924884,-60.97522333402172,0.02030865441395562,-61.34409577134797,12.15370452878692
25.08560788370216,-0.1313232695759264,-60.83331498366235,0.02156055757703898,-61.34667476979686,12.06401966876732
25.2770076262628,-0.1311700713264439,-61.17702391602415,0.02213711053663376,-61.32875430618347,11.9744358443291
25.46986772256981,-0.1312697788658874,-60.64854823951681,0.02304220688628146,-60.87184027373712,11.88539464082187
25.66419931492164,-0.131068949652506,-61.15126603809401,0.02420301555014977,-61.2099911379621,11.79830199455996
25.86001363063104,-0.1311333782638373,-61.13246174513429,0.02478447739860615,-61.09723302508408,11.71067632773441
26.05732198267354,-0.1311145009199025,-61.03189819698952,0.02543137906651699,-61.32010146796211,11.62438711120432
26.25613577034117,-0.1313288933400677,-61.14846298364223,0.02612445583398024,-61.37931213554005,11.5372731278443
26.45646647990099,-0.1311886897457116,-59.37125329332375,0.02654815026859495,-59.50557226907556,11.4528517825356
26.65832568525861,-0.131104651157883,-61.05232983892157,0.02747067260414191,-61.27523040758082,11.36788660147888
26.86172504862711,-0.1311861276659179,-60.93740661331337,0.0284000201052743,-61.14013428406821,11.2835781141565
27.06667632120051,-0.1313375869722506,-60.99300881265124,0.02902905027477578,-61.19383773605887,11.20066649349499
27.27319134383292,-0.1313441016258953,-60.99789111085072,0.0298919755837924,-61.43027888620988,11.11718761918168
27.48128204772246,-0.1315738099705795,-58.35282673946284,0.03069661883475914,-58.30666103964693,11.03532064414498
27.69096045510076,-0.1311541116788056,-60.69387190451032,0.03127610152974244,-60.93954253324384,10.95318574999946
27.90223867992733,-0.1312986004301298,-60.97708927028239,0.03235423395608036,-61.30780839820179,10.87163329266623
28.11512892858952,-0.1315441515875345,-59.03991270424277,0.03304680300178715,-59.27448070042842,10.79277149769874
28.32964350060784,-0.1314726335332765,-61.12622227783761,0.03373784233335139,-61.30071546774265,10.71197592359825
28.54579478934635,-0.1314435184687656,-60.85587235611752,0.03440827293322125,-61.01210061882657,10.63350812195573
28.76359528272886,-0.1314423980081109,-61.10162804341975,0.03506000208448864,-61.34063823635078,10.5539155401723
28.98305756396022,-0.1312045245820657,-60.78489954863223,0.0357297931096575,-61.18535239593299,10.476667583801
29.20419431225353,-0.1313486326168972,-61.10798302268898,0.03646792773166653,-61.42478448895416,10.39869635680335
29.42701830356245,-0.1315102383171432,-60.91935713861746,0.03714761896569642,-61.1849692491826,10.32128522165464
29.6515424113194,-0.1315980102910338,-60.50293946253972,0.0378084909247258,-60.91526558254608,10.24485322905105
29.87777960717944,-0.1314923642062406,-60.87666125987802,0.03851042478144043,-61.24074225119554,10.1686519688357
30.10574296176942,-0.131435604309818,-60.8444519637823,0.039272587601756,-61.26476217082953,10.09278844519442
30.33544564544343,-0.1313241850770585,-60.7599343364193,0.03958897189228783,-61.33213802935148,10.0171176555913
30.56690092904341,-0.1312119294401679,-60.97441697980187,0.04029482198918705,-61.22825229432712,9.943730868625863
30.80012218466613,-0.1312874053568596,-60.44070911383998,0.04159585787231927,-60.70910946222266,9.869808912656879
31.03512288643554,-0.1313116973308788,-61.16755877428307,0.04220305717278013,-61.51658245532924,9.797798003833433
31.27191661128128,-0.1315537437546287,-58.18806165175208,0.04348939983445621,-58.41259724550837,9.724582496847635
31.51051703972322,-0.1315176294669709,-59.62243049320946,0.04500752775925213,-60.00566085193203,9.652807527241125
31.75093795666157,-0.1314367846661395,-58.55720788434166,0.04572847270435034,-58.75425076711647,9.580195802183248
31.99319325217358,-0.1311960690827151,-59.47584218440071,0.04672283980746618,-59.90296982814559,9.509903289158112
32.23729692231577,-0.1313625753808498,-60.94858918109019,0.04742730750697228,-61.22788235164717,9.438852604301466
32.48326306993266,-0.1313025442396685,-58.21675871894513,0.04818531221485535,-58.56696570308163,9.367768708871337
32.73110590547164,-0.1313511466821106,-60.85870033685659,0.04893261253723362,-61.31301716302757,9.298851317436736
32.98083974780369,-0.1314017001946945,-58.45049223539795,0.04956024081714306,-58.65466569444327,9.22961845676136
33.232479025051,-0.1317840314141239,-60.84001655167923,0.05044321730058288,-61.02146723977523,9.161551307806141
33.48603827542018,-0.1314523434844893,-60.95165564805011,0.05096632313228552,-61.21457341119664,9.093248654320423
33.74153214804249,-0.1314627249294578,-60.31405603573078,0.05177008477227692,-60.55718792221236,9.025981268934752
33.99897540381998,-0.1311687423140657,-60.8470350459963,0.05198233628091921,-61.13118997517876,8.958045910969668
34.25838291627833,-0.131522139801175,-59.7933387859889,0.05279497508552611,-60.00841883646611,8.89172803777767
34.51976967242628,-0.1313564233369066,-60.95005139462774,0.05326862621961813,-61.12414605294246,8.825380714315074
34.78315077362126,-0.1312347175852437,-60.74143945060076,0.05360598402357472,-61.09681692452631,8.759934323382689
35.04854143644212,-0.1314278910383882,-60.77761254342418,0.05448252773175914,-61.49093689182728,8.695520037034022
35.31595699356797,-0.1311502453268395,-60.66126809097617,0.05482779349154386,-61.03945488197652,8.63034247611791
35.58541289466432,-0.1310580072567015,-60.85733535536032,0.05516871261944321,-61.11788535081122,8.566359187120337
35.85692470727535,-0.1312014290189413,-60.93071528467843,0.05593938904669341,-61.27917337115483,8.501987501097851
36.13050811772352,-0.1310932731447224,-60.84953882671676,0.05627120000286718,-61.240494107911,8.438801709995307
